LTspice 24.0.12 for Windows
Circuit: * D:\Altium Projects\ECE295ProjectFiles\M0\LTspice\VReg.asc
Start Time: Wed Jan 29 23:07:58 2025
Warning: Multiple definitions of model "2scr375p" Type: BJT
Warning: Multiple definitions of model "bc857b" Type: BJT
Warning: Multiple definitions of model "bc847c" Type: BJT
Warning: Multiple definitions of model "bc847b" Type: BJT
solver = Normal
Maximum thread count: 20
tnom = 27
temp = 27
method = modified trap
Direct Newton iteration for .op point succeeded.
Semiconductor Device Operating Points:
                        --- Diodes ---
Name:    d:u1:1      d:u1:2      d:u1:5      d:u1:6      d:u1:4
Model:    u1:dx       u1:dx       u1:dx       u1:dx       u1:dx
Id:     -4.71e-12   -4.03e-12    2.23e-05    2.35e-04   -2.14e-13
Vd:     -4.71e+00   -4.03e+00    6.16e-01    6.77e-01   -2.13e-01
Req:     1.00e+12    1.00e+12    1.16e+03    1.10e+02    1.00e+12
CAP:     0.00e+00    0.00e+00    0.00e+00    0.00e+00    0.00e+00

Name:    d:u1:3        d1
Model:    u1:dx      1n5222
Id:     -1.48e-13   -2.87e-02
Vd:     -1.47e-01   -2.52e+00
Req:     1.00e+12    1.63e+00
CAP:     0.00e+00    7.80e-11

                        --- Bipolar Transistors ---
Name:     q:u1:1      q:u1:2        q1
Model:     u1:qx       u1:qx      tip29c
Ib:       7.99e-08    7.99e-08    2.13e-04
Ic:       4.99e-05    4.99e-05    1.71e-02
Vbe:      6.97e-01    6.97e-01    5.85e-01
Vbc:     -9.45e+00   -9.45e+00   -6.37e+00
Vce:      1.02e+01    1.02e+01    6.96e+00
BetaDC:   6.25e+02    6.25e+02    8.02e+01
Gm:       1.93e-03    1.93e-03    6.48e-01
Rpi:      3.24e+05    3.24e+05    1.57e+02
Rx:       0.00e+00    0.00e+00    1.00e-01
Ro:       0.00e+00    0.00e+00    6.22e+03
Cbe:      0.00e+00    0.00e+00    1.32e-08
Cbc:      0.00e+00    0.00e+00    5.33e-11
Cjs:      0.00e+00    0.00e+00    0.00e+00
BetaAC:   6.25e+02    6.25e+02    1.02e+02
Cbx:      0.00e+00    0.00e+00    0.00e+00
Ft:       0.00e+00    0.00e+00    7.78e+06


Total elapsed time: 0.161 seconds.

